
**** 11/11/23 12:49:52 ******* PSpice Lite (March 2016) ******* ID# 10813 ****

 ** Profile: "SCHEMATIC1-sim3"  [ c:\users\bogdan\desktop\etti\an 3 - sem 1\p1\p1 bun-pspicefiles\schematic1\sim3.sim ] 


 ****     CIRCUIT DESCRIPTION


******************************************************************************




** Creating circuit file "sim3.cir" 
** WARNING: THIS AUTOMATICALLY GENERATED FILE MAY BE OVERWRITTEN BY SUBSEQUENT SIMULATIONS

*Libraries: 
* Profile Libraries :
* Local Libraries :
.LIB "C:/Cadence/SPB_17.2/tools/capture/library/pspice/SMLS14BET.lib" 
.LIB "C:/Cadence/SPB_17.2/tools/capture/library/pspice/MJD31CG.lib" 
.LIB "C:/Cadence/SPB_17.2/tools/capture/library/pspice/BC856B.lib" 
.LIB "C:/Cadence/SPB_17.2/tools/capture/library/pspice/BZX84C5V6.lib" 
.LIB "C:/Cadence/SPB_17.2/tools/capture/library/pspice/BC846B.lib" 
* From [PSPICE NETLIST] section of C:\Users\Bogdan\AppData\Roaming\SPB_Data\cdssetup\OrCAD_PSpice\17.2.0\PSpice.ini file:
.lib "nomd.lib" 

*Analysis directives: 
.OPTIONS ADVCONV
.PROBE64 V(alias(*)) I(alias(*)) W(alias(*)) D(alias(*)) NOISE(alias(*)) 
.INC "..\SCHEMATIC1.net" 



**** INCLUDING SCHEMATIC1.net ****
* source P1 BUN
Q_Q8         TEMP N03301 N05464 QBC846B 
Q_Q10         N01152 TEMP N01250 QBC846B 
R_R6         N01284 N01152  10k TC=0,0 
R_R7         N04251 N01152  1k TC=0,0 
R_R8         N04200 N01152  1k TC=0,0 
R_R9         0 N04129  1k TC=0,0 
Q_Q13         N04204 N06633 N04129 QBC846B 
Q_Q14         TEMP N06603 N04129 QBC846B 
V_V1         N01152 0 36Vdc
D_D2         0 N01284 BZX84-C5V6 
R_R12         N01284 N06633  1k TC=0,0 
R_R13         N06603 N11029  1k TC=0,0 
R_R16         N22117 N05464  2k TC=0,0 
X_R14         N11542 N11029 N22101 POT PARAMS: SET={SET} VALUE=2k
R_R18         N22101 N22117  820 TC=0,0 
Q_Q17         N04204 N04204 N04251 QBC856B 
Q_Q18         TEMP N04204 N04200 QBC856B 
R_R21         N26191 N22997  150 TC=0,0 
R_R22         N21864 N05464  0.47 TC=0,0 
Q_Q19         TEMP N17142 0 QBC846B 
R_R24         N17142 N01284  6.8k TC=0,0 
R_R23         N171581 N17142  470 TC=0,0 
R_R25         N175481 N171581  100 TC=0,0 
R_R26         0 N175481  150 TC=0,0 
C_C1         0 N05464  1n  TC=0,0 
R_R27         N26106 N05464  150 TC=0,0 
R_R28         N22993 N26106  150 TC=0,0 
D_D3         N21332 0 SMLS14BET 
R_R30         N21003 N01152  680 TC=0,0 
R_R31         N21156 N21003  680 TC=0,0 
R_R32         N21365 N21156  680 TC=0,0 
R_R33         N21332 N21365  680 TC=0,0 
R_R34         N21868 N21864  0.47 TC=0,0 
R_R35         N03301 N21868  0.47 TC=0,0 
R_R36         0 N11542  2k TC=0,0 
R_R37         N22997 N22993  150 TC=0,0 
D_D4         N25728 0 SMLS14BET 
R_R38         N25552 N05464  220 TC=0,0 
Q_Q20         N01152 N01250 N03301 QBC846B 
Q_Q21         N24372 N01250 N24376 QBC846B 
Q_Q22         N24380 N01250 N24384 QBC846B 
R_R39         N24372 N24380  0.47 TC=0,0 
R_R40         N24376 N24384  0.47 TC=0,0 
R_R41         N01152 N24372  0.47 TC=0,0 
R_R42         N03301 N24376  0.47 TC=0,0 
R_R43         N25724 N25552  220 TC=0,0 
R_R44         N25842 N25724  220 TC=0,0 
R_R46         N25728 N25842  150 TC=0,0 
R_R47         N26235 N26191  150 TC=0,0 
R_R48         0 N26235  10 TC=0,0 
.PARAM  set=0.5

**** RESUMING sim3.cir ****
.END

**** 11/11/23 12:49:52 ******* PSpice Lite (March 2016) ******* ID# 10813 ****

 ** Profile: "SCHEMATIC1-sim3"  [ c:\users\bogdan\desktop\etti\an 3 - sem 1\p1\p1 bun-pspicefiles\schematic1\sim3.sim ] 


 ****     Diode MODEL PARAMETERS


******************************************************************************




               SMLS14BET       BZX84-C5V6      
          IS  405.890000E-24    2.666500E-18 
           N    2.4475           .82284      
         ISR                    1.266600E-09 
         IKF     .98529          .01176      
          BV                    5.7078       
         IBV                     .35715      
          RS   15.483            .51617      
          TT                   78.483000E-09 
         CJO   38.500000E-12  137.100000E-12 
          VJ     .87273          .72637      
           M     .20189          .34532      
          EG    2.638                        


**** 11/11/23 12:49:52 ******* PSpice Lite (March 2016) ******* ID# 10813 ****

 ** Profile: "SCHEMATIC1-sim3"  [ c:\users\bogdan\desktop\etti\an 3 - sem 1\p1\p1 bun-pspicefiles\schematic1\sim3.sim ] 


 ****     BJT MODEL PARAMETERS


******************************************************************************




               QBC856B         QBC846B         
               PNP             NPN             
       LEVEL    1               1            
          IS   20.140000E-15   18.220000E-15 
          BF  315.3           324.4          
          NF     .9974           .9932       
         VAF   39.15           82            
         IKF     .079            .109        
         ISE    6.578000E-15  289.400000E-18 
          NE    1.45            1.4          
          BR    8.68            8.29         
          NR     .9952           .9931       
         VAR    9.5            17.9          
         IKR     .09             .09         
         ISC   16.330000E-15    9.982000E-12 
          NC    1.15            1.763        
         ISS    0               0            
          RB   10              10            
         RBM    5.000000E-06    5            
         IRB    5.000000E-06    5.000000E-06 
          RE     .663            .649        
          RC     .718            .7014       
         CJE   11.350000E-12   12.440000E-12 
         VJE     .7071           .7579       
         MJE     .3808           .3656       
         CJC    6.395000E-12    3.347000E-12 
         VJC     .4951           .5463       
         MJC     .44             .391        
        XCJC     .6288           .6193       
         CJS    0               0            
         VJS     .75             .75         
         MJS     .333            .333        
          FC     .9059           .979        
          TF  654.600000E-12  490.800000E-12 
         XTF    5.387           9.51         
         VTF    6.245           2.927        
         ITF     .2108           .3131       
          TR   55.000000E-09   90.000000E-09 
          KF    0               0            
          AF    1               1            
          CN    2.2             2.42         
           D     .52             .87         


**** 11/11/23 12:49:52 ******* PSpice Lite (March 2016) ******* ID# 10813 ****

 ** Profile: "SCHEMATIC1-sim3"  [ c:\users\bogdan\desktop\etti\an 3 - sem 1\p1\p1 bun-pspicefiles\schematic1\sim3.sim ] 


 ****     SMALL SIGNAL BIAS SOLUTION       TEMPERATURE =   27.000 DEG C


******************************************************************************



 NODE   VOLTAGE     NODE   VOLTAGE     NODE   VOLTAGE     NODE   VOLTAGE


( TEMP)   14.0370  (N01152)   36.0000 (N01250)   13.4710 (N01284)    5.5784     

(N03301)   12.7660 (N04129)    4.9186 (N04200)   33.5310 (N04204)   32.8790     

(N04251)   33.5420 (N05464)   12.7230 (N06603)    5.5773 (N06633)    5.5724     

(N11029)    5.5845 (N11542)    3.7230 (N17142)     .5341 (N21003)   27.7570     

(N21156)   19.5130 (N21332)    3.0268 (N21365)   11.2700 (N21864)   12.7370     

(N21868)   12.7520 (N22101)    7.4533 (N22117)    8.9856 (N22993)    7.7008     

(N22997)    5.1897 (N24372)   35.9910 (N24376)   12.7750 (N24380)   35.9870     

(N24384)   12.7790 (N25552)   10.0890 (N25724)    7.4543 (N25728)    3.0237     

(N25842)    4.8199 (N26106)   10.2120 (N26191)    2.6786 (N26235)     .1674     

(N171581)     .1854                   (N175481)     .1113                   




    VOLTAGE SOURCE CURRENTS
    NAME         CURRENT

    V_V1        -5.068E-02

    TOTAL POWER DISSIPATION   1.82E+00  WATTS



          JOB CONCLUDED

**** 11/11/23 12:49:52 ******* PSpice Lite (March 2016) ******* ID# 10813 ****

 ** Profile: "SCHEMATIC1-sim3"  [ c:\users\bogdan\desktop\etti\an 3 - sem 1\p1\p1 bun-pspicefiles\schematic1\sim3.sim ] 


 ****     JOB STATISTICS SUMMARY


******************************************************************************



  Total job time (using Solver 1)   =         .05
